Circuit: * Z:\home\matias\Documentos\DispositivosSemiconductores\repo\accittuvaz\TP2\LTspice\tbjphillips(hfe).asc

Direct Newton iteration for .op point succeeded.
Semiconductor Device Operating Points:
                        --- Bipolar Transistors ---
Name:       q1
Model:  qbc548c/plp
Ib:       1.00e-05
Ic:       4.60e-03
Vbe:      6.62e-01
Vbc:     -2.14e+00
Vce:      2.80e+00
BetaDC:   4.60e+02
Gm:       1.71e-01
Rpi:      2.61e+03
Rx:       1.00e+00
Ro:       1.19e+04
Cbe:      1.15e-10
Cbc:      1.38e-12
Cjs:      0.00e+00
BetaAC:   4.46e+02
Cbx:      8.49e-13
Ft:       2.32e+08



Date: Wed Oct 29 00:00:30 2014
Total elapsed time: 0.077 seconds.

tnom = 27
temp = 27
method = trap
totiter = 5
traniter = 0
tranpoints = 0
accept = 0
rejected = 0
matrix size = 6
fillins = 0
solver = Normal
Matrix Compiler1: 360 bytes object code size
Matrix Compiler2: 462 bytes object code size

