Circuit: * Z:\home\matias\Documentos\DispositivosSemiconductores\TP2\LTspice\tbjphillips(hfe).asc

Direct Newton iteration for .op point succeeded.
Semiconductor Device Operating Points:
                        --- Bipolar Transistors ---
Name:       q1
Model:  qbc548b/plp
Ib:       1.00e-04
Ic:       2.43e-02
Vbe:      7.37e-01
Vbc:     -5.13e-01
Vce:      1.25e+00
BetaDC:   2.43e+02
Gm:       8.06e-01
Rpi:      2.61e+02
Rx:       1.00e+00
Ro:       2.55e+03
Cbe:      6.11e-10
Cbc:      1.82e-12
Cjs:      0.00e+00
BetaAC:   2.10e+02
Cbx:      1.12e-12
Ft:       2.09e+08



Date: Sat Oct 25 22:20:39 2014
Total elapsed time: 0.057 seconds.

tnom = 27
temp = 27
method = trap
totiter = 5
traniter = 0
tranpoints = 0
accept = 0
rejected = 0
matrix size = 6
fillins = 0
solver = Normal
Matrix Compiler1: 360 bytes object code size
Matrix Compiler2: 462 bytes object code size

