Circuit: * Z:\home\matias\Documentos\DispositivosSemiconductores\TP2\LTspice\tbjsiemenshfe.asc

Direct Newton iteration for .op point succeeded.
Semiconductor Device Operating Points:
                        --- Bipolar Transistors ---
Name:       q1
Model:  bc548c/sie
Ib:       1.00e-04
Ic:       3.66e-02
Vbe:      7.71e-01
Vbc:     -4.79e-01
Vce:      1.25e+00
BetaDC:   3.66e+02
Gm:       1.21e+00
Rpi:      2.59e+02
Rx:       2.65e+01
Ro:       2.44e+03
Cbe:      1.23e-09
Cbc:      4.00e-12
Cjs:      0.00e+00
BetaAC:   3.14e+02
Cbx:      0.00e+00
Ft:       1.57e+08



Date: Sat Oct 25 22:18:23 2014
Total elapsed time: 0.022 seconds.

tnom = 27
temp = 27
method = trap
totiter = 5
traniter = 0
tranpoints = 0
accept = 0
rejected = 0
matrix size = 6
fillins = 0
solver = Normal
Matrix Compiler1: 360 bytes object code size
Matrix Compiler2: 462 bytes object code size

