Circuit: * Z:\home\matias\Documentos\DispositivosSemiconductores\repo\accittuvaz\TP2\LTspice\tbjsiemenshfe.asc

Direct Newton iteration for .op point succeeded.
Semiconductor Device Operating Points:
                        --- Bipolar Transistors ---
Name:       q1
Model:  bc548c/sie
Ib:       1.00e-05
Ic:       4.32e-03
Vbe:      6.76e-01
Vbc:     -2.12e+00
Vce:      2.80e+00
BetaDC:   4.32e+02
Gm:       1.64e-01
Rpi:      2.60e+03
Rx:       2.65e+01
Ro:       2.11e+04
Cbe:      1.50e-10
Cbc:      2.75e-12
Cjs:      0.00e+00
BetaAC:   4.27e+02
Cbx:      0.00e+00
Ft:       1.71e+08



Date: Wed Oct 29 00:00:16 2014
Total elapsed time: 0.042 seconds.

tnom = 27
temp = 27
method = trap
totiter = 6
traniter = 0
tranpoints = 0
accept = 0
rejected = 0
matrix size = 6
fillins = 0
solver = Normal
Matrix Compiler1: 360 bytes object code size
Matrix Compiler2: 462 bytes object code size

